Frequency,S11_Real,S11_Imaginary,
1000000,-0.9804965904,0.06807192879,
6999000,-0.8578537087,0.434524105,
12998000,-0.6228599335,0.7047788108,
18997000,-0.3216585763,0.8694742234,
24996000,0.01371232368,0.9217324302,
30995000,0.3451248223,0.8531786286,
36994000,0.6312834791,0.6719288001,
42993000,0.8356560265,0.3981075845,
48992000,0.9269166724,0.06679141107,
54991000,0.8912432673,-0.2761914427,
60990000,0.7313383163,-0.5843174334,
66989000,0.4690061308,-0.8116818489,
72988000,0.1415846156,-0.9258117637,
78987000,-0.2031138382,-0.9104945471,
84986000,-0.5151463547,-0.7708325639,
90985000,-0.7520555516,-0.5287128917,
96984000,-0.8832379362,-0.2205587757,
102983000,-0.8941210507,0.1101621869,
108982000,-0.7866976684,0.4200798541,
114981000,-0.5771065878,0.6689330791,
120980000,-0.294595193,0.8256245904,
126979000,0.02467655139,0.8711203636,
132978000,0.3381495445,0.8000296655,
138977000,0.6058605063,0.6207921145,
144976000,0.7911153231,0.3566800577,
150975000,0.8683862454,0.04299156998,
156974000,0.8264344946,-0.2779606626,
162973000,0.6705119853,-0.560955164,
168972000,0.4230007529,-0.7669128156,
174971000,0.118339056,-0.8675941734,
180970000,-0.1992107568,-0.8513518181,
186969000,-0.4875067968,-0.7223662327,
192968000,-0.7078280619,-0.5003600604,
198967000,-0.8335125084,-0.2165655305,
204966000,-0.8498706222,0.09060609552,
210965000,-0.7569500849,0.3817622254,
216964000,-0.5673976353,0.6208820184,
222963000,-0.3065258346,0.7766097105,
228962000,-0.006758198462,0.8294780739,
234961000,0.2930945865,0.771634842,
240960000,0.5525662243,0.6097666378,
246959000,0.7371074614,0.3636161207,
252958000,0.8197951872,0.06664980925,
258957000,0.7877168011,-0.2405841803,
264956000,0.6456658693,-0.5144634212,
270955000,0.4134795723,-0.7165896042,
276954000,0.125197639,-0.8193605481,
282953000,-0.178662563,-0.8096863741,
288952000,-0.4558185786,-0.6920604313,
294951000,-0.6697673788,-0.4843409066,
300950000,-0.7944870383,-0.2158660472,
306949000,-0.8152975712,0.07694387624,
312948000,-0.7314752176,0.356336046,
318947000,-0.5547674819,0.5865216577,
324946000,-0.30907921,0.7390360538,
330945000,-0.02540443146,0.7942862231,
336944000,0.2598268552,0.7452569273,
342943000,0.5092108099,0.5965790112,
348942000,0.6889177632,0.3675682827,
354941000,0.7731252519,0.08842756651,
360940000,0.7503441527,-0.2019954274,
366939000,0.62291436,-0.4640778638,
372938000,0.40918337,-0.6613364214,
378937000,0.1397830554,-0.766107905,
384936000,-0.1474524896,-0.7655584574,
390935000,-0.4129809449,-0.6618999761,
396934000,-0.6217239668,-0.4707932619,
402933000,-0.7473558661,-0.2193113528,
408932000,-0.7744612636,0.05836954443,
414931000,-0.7013433619,0.326080826,
420930000,-0.5380451508,0.5498281475,
426929000,-0.3063267977,0.7006084877,
432928000,-0.03575900248,0.758955348,
438927000,0.23821429,0.7161811998,
444926000,0.478895105,0.5776412316,
450925000,0.6538914257,0.3607978805,
456924000,0.7382511945,0.09562719903,
462923000,0.7199574296,-0.1823934073,
468922000,0.602334146,-0.434143091,
474921000,0.4021211245,-0.6248433208,
480920000,0.1474369268,-0.729335006,
486919000,-0.125549558,-0.735122553,
492918000,-0.3803810362,-0.6425859399,
498917000,-0.5844674348,-0.4666624123,
504916000,-0.7108792793,-0.2310019762,
510915000,-0.7457654586,0.03329381218,
516914000,-0.6846737593,0.2913302941,
522913000,-0.5362810372,0.5108349237,
528912000,-0.3196224686,0.6638736851,
534911000,-0.06190120952,0.729111325,
540910000,0.2035669753,0.6980872419,
546909000,0.4402586476,0.5728060125,
552908000,0.6162626606,0.3698018241,
558907000,0.7063308325,0.1160889485,
564906000,0.6980781382,-0.1525076643,
570905000,0.5927839383,-0.399221077,
576904000,0.4056881253,-0.5894926178,
582903000,0.1645293053,-0.6988719763,
588902000,-0.09736396731,-0.7139722177,
594901000,-0.3455532814,-0.6352122494,
600900000,-0.5477268581,-0.4750711511,
606899000,-0.679980576,-0.2557905781,
612898000,-0.7261626029,-0.005712466803,
618897000,-0.682272572,0.2437216322,
624896000,-0.5544326244,0.4620197324,
630895000,-0.3575885156,0.6215039178,
636894000,-0.1166934177,0.7016773492,
642893000,0.1381915385,0.6911449425,
648892000,0.3736556182,0.5899425552,
654891000,0.5579409945,0.4096958703,
660890000,0.6635655647,0.1730826777,
666889000,0.6763009198,-0.08540479319,
672888000,0.5936315879,-0.3300772999,
678887000,0.4274087036,-0.5269405442,
684886000,0.2023494104,-0.648992674,
690885000,-0.05010296941,-0.6802761872,
696884000,-0.2941583115,-0.618894892,
702883000,-0.4977574436,-0.4752655261,
708882000,-0.6364126509,-0.2706727405,
714881000,-0.692769139,-0.03189421267,
720880000,-0.6613861012,0.2101091521,
726879000,-0.5470143128,0.4256044079,
732878000,-0.3645620715,0.586341455,
738877000,-0.1367831603,0.6727564857,
744876000,0.1074552273,0.6725117331,
750875000,0.3372296728,0.5840307106,
756874000,0.5192071487,0.4197373484,
762873000,0.6305420752,0.1993689538,
768872000,0.6539878753,-0.04640076249,
774871000,0.5871627959,-0.2839968416,
780870000,0.4383547552,-0.480180283,
786869000,0.2303376528,-0.6079297901,
792868000,-0.009268442372,-0.6517784082,
798867000,-0.2465335597,-0.6066929596,
804866000,-0.4498369949,-0.4809655412,
810865000,-0.5945683891,-0.29226279,
816864000,-0.6626039844,-0.06640587485,
822863000,-0.646606562,0.16878918,
828862000,-0.5494702838,0.382629244,
834861000,-0.3833603429,0.5488316136,
840860000,-0.1684385001,0.6459824936,
846859000,0.06794570692,0.6609130724,
852858000,0.2944121457,0.590034225,
858857000,0.4816674136,0.4428522721,
864856000,0.6039259721,0.2373023141,
870855000,0.6444830149,0.0006942491911,
876854000,0.5958230519,-0.2348000426,
882853000,0.4653309422,-0.4364262685,
888852000,0.2713203064,-0.5762210559,
894851000,0.04089046327,-0.6360274652,
900850000,-0.19441582,-0.6086074209,
906849000,-0.4023810262,-0.499933401,
912848000,-0.5566809488,-0.3250262085,
918847000,-0.6377734164,-0.1082985166,
924846000,-0.6374035651,0.1219471098,
930845000,-0.5556181038,0.3365619332,
936844000,-0.4034754919,0.5080442127,
942843000,-0.2009307568,0.6143012302,
948842000,0.02623005001,0.6417200485,
954841000,0.2488643964,0.5870043714,
960840000,0.4382474974,0.4555414139,
966839000,0.5671625397,0.26483705,
972838000,0.6184537013,0.04023872286,
978837000,0.5852620511,-0.1877324602,
984836000,0.4718603835,-0.3879805558,
990835000,0.2945851508,-0.5325690656,
996834000,0.07785985515,-0.6024320882,
1002833000,-0.1485851046,-0.5896321764,
1008832000,-0.3533671809,-0.4964434664,
1014831000,-0.509473717,-0.3366347015,
1020830000,-0.5968378361,-0.1329192254,
1026829000,-0.605711369,0.0872581645,
1032828000,-0.5352758671,0.2949937877,
1038827000,-0.3960448601,0.4636213401,
1044826000,-0.2055205985,0.570020948,
1050825000,0.009810658093,0.6017441637,
1056824000,0.2228925527,0.5545516056,
1062823000,0.4037232124,0.4335276213,
1068822000,0.5287883381,0.2545396931,
1074821000,0.5811770118,0.04322108949,
1080820000,0.5535746356,-0.1721630606,
1086819000,0.4506326017,-0.3626088225,
1092818000,0.2870500634,-0.502806477,
1098817000,0.08481811552,-0.5753996945,
1104816000,-0.1288547523,-0.5714026878,
1110815000,-0.3258896607,-0.4923442814,
1116814000,-0.4822744351,-0.3495826634,
1122813000,-0.5782558736,-0.1612873962,
1128812000,-0.6025980508,0.04841056021,
1134811000,-0.5522687018,0.2533591469,
1140810000,-0.4321562649,0.4282674038,
1146809000,-0.2578078021,0.5501482067,
1152808000,-0.05070884054,0.6032979722,
1158807000,0.1627176036,0.5792284637,
1164806000,0.3545981332,0.479875629,
1170805000,0.4976943305,0.3177351863,
1176804000,0.5732397916,0.1142447008,
1182803000,0.5699070205,-0.1029034095,
1188802000,0.4884808698,-0.3040705428,
1194801000,0.3404928485,-0.4612974845,
1200800000,0.1465347369,-0.552940414,
1206799000,-0.06574986182,-0.5684947064,
1212798000,-0.2678715839,-0.5073301129,
1218797000,-0.4332921151,-0.3789421875,
1224796000,-0.5410115087,-0.2012396388,
1230795000,-0.5781453653,0.002131578837,
1236794000,-0.5408141682,0.2040189616,
1242793000,-0.4340616733,0.3786454003,
1248792000,-0.2715409496,0.5040136269,
1254791000,-0.07580216714,0.5616309031,
1260790000,0.1269517577,0.5460265357,
1266789000,0.3102304377,0.4580251209,
1272788000,0.4494962435,0.3096448349,
1278787000,0.5257852362,0.1206231149,
1284786000,0.5281978192,-0.08209571544,
1290785000,0.4573301649,-0.272089305,
1296784000,0.3228595193,-0.4216212516,
1302783000,0.1450451945,-0.512908197,
1308782000,-0.05287919481,-0.5338897879,
1314781000,-0.2442970107,-0.4836782417,
1320780000,-0.4038742076,-0.3692215293,
1326779000,-0.5123996477,-0.2061561077,
1332778000,-0.5563141842,-0.01534676637,
1338777000,-0.5301739672,0.1778500127,
1344776000,-0.4371207783,0.3497236128,
1350775000,-0.2884273419,0.4781099882,
1356774000,-0.1039864638,0.5435790653,
1362773000,0.09249631138,0.5396203928,
1368772000,0.2749838136,0.4643129784,
1374771000,0.4178047404,0.3276245426,
1380770000,0.5014066383,0.1484001056,
1386769000,0.5137911847,-0.04881279221,
1392768000,0.453660357,-0.23574076,
1398767000,0.3309752769,-0.3866278892,
1404766000,0.1628154995,-0.4833332998,
1410765000,-0.026556058,-0.5127863737,
1416764000,-0.2127591337,-0.4729976403,
1422763000,-0.3718968922,-0.3715071186,
1428762000,-0.4844647083,-0.2206506645,
1434761000,-0.5374740203,-0.04145098839,
1440760000,-0.5242193918,0.1450648503,
1446759000,-0.4474912257,0.3150487373,
1452758000,-0.3154882313,0.4485406708,
1458757000,-0.1452297381,0.5274026189,
1464756000,0.04375562894,0.5408816593,
1470755000,0.2262960303,0.4857775849,
1476754000,0.3782959395,0.3685652996,
1482753000,0.4778350964,0.2032065321,
1488752000,0.5106556421,0.01332057937,
1494751000,0.4717883933,-0.1757418593,
1500750000,0.3687459778,-0.3367078848,
1506749000,0.2120587942,-0.4476190475,
1512748000,0.02840215493,-0.4950189335,
1518747000,-0.1578331238,-0.472885906,
1524746000,-0.3225737883,-0.3864441592,
1530745000,-0.4451998385,-0.2484193688,
1536744000,-0.510338275,-0.0776246407,
1542743000,-0.5114420074,0.1044277793,
1548742000,-0.4496311864,0.2741848209,
1554741000,-0.3317501657,0.4116958486,
1560740000,-0.1727903517,0.4995590722,
1566739000,0.00722934026,0.5259455365,
1572738000,0.1858334469,0.4867900146,
1578737000,0.339518575,0.3866186385,
1584736000,0.4473440761,0.2370850466,
1590735000,0.4939047716,0.05862712814,
1596734000,0.4727028837,-0.1252148217,
1602733000,0.3861260883,-0.2882776089,
1608732000,0.2465286957,-0.4074991367,
1614731000,0.07352642972,-0.4679187837,
1620730000,-0.1081395881,-0.4618072766,
1626729000,-0.2739516016,-0.3913691096,
1632728000,-0.4026899174,-0.2668579512,
1638727000,-0.4777285551,-0.1059450642,
1644726000,-0.4912379639,0.07019306261,
1650725000,-0.4435614048,0.2391396984,
1656724000,-0.3360677271,0.3794893636,
1662723000,-0.1874090666,0.4733079082,
1668722000,-0.01543215823,0.5097786171,
1674721000,0.1594258915,0.4827290013,
1680720000,0.3134237839,0.3954937322,
1686719000,0.4264207995,0.258755732,
1692718000,0.4834873736,0.08992446549,
1698717000,0.4761878592,-0.08719797465,
1704716000,0.4056699285,-0.2503677448,
1710715000,0.2813133109,-0.3763784124,
1716714000,0.1207997268,-0.4492878356,
1722713000,-0.05437729602,-0.4596284869,
1728712000,-0.2206064826,-0.4071649614,
1734711000,-0.356798284,-0.2994652493,
1740710000,-0.4444408808,-0.151402224,
1746709000,-0.4737937478,0.01771561861,
1752708000,-0.4423732474,0.1847308691,
1758707000,-0.352961277,0.3311692509,
1764706000,-0.2182300665,0.4358560188,
1770705000,-0.05459472197,0.4863335036,
1776704000,0.1167914356,0.4756226442,
1782703000,0.2731853292,0.4042416753,
1788702000,0.3948539817,0.2807504511,
1794701000,0.4633714118,0.121304467,
1800700000,0.4696968997,-0.05337042715,
1806699000,0.4125889436,-0.216051187,
1812698000,0.3000006873,-0.3472879958,
1818697000,0.1473885475,-0.4282326094,
1824696000,-0.02287628099,-0.4479074768,
1830695000,-0.1866333762,-0.404823333,
1836694000,-0.3224760189,-0.3070795082,
1842693000,-0.4128078494,-0.1665242951,
1848692000,-0.4468762481,-0.005193948362,
1854691000,-0.4207053615,0.1553427426,
1860690000,-0.3399512977,0.295866442,
1866689000,-0.214687385,0.3970925849,
1872688000,-0.06224855697,0.4472408662,
1878687000,0.09723242858,0.4399654862,
1884686000,0.2435086835,0.3769507261,
1890685000,0.3578734348,0.26559313,
1896684000,0.4254190441,0.1217118512,
1902683000,0.4365976935,-0.03771973818,
1908682000,0.390595722,-0.19031325,
1914681000,0.293146802,-0.3166991836,
1920680000,0.1568810328,-0.4002822684,
1926679000,8.383563922e-05,-0.4297159798,
1932678000,-0.1567193256,-0.4016817342,
1938677000,-0.2931652992,-0.3200282934,
1944676000,-0.3925937771,-0.1951220697,
1950675000,-0.4408770536,-0.0438134884,
1956674000,-0.4316846838,0.1146671261,
1962673000,-0.3676125289,0.260029503,
1968672000,-0.256466045,0.3730468643,
1974671000,-0.1125315188,0.4393555352,
1980670000,0.04523210458,0.4501443737,
1986669000,0.1970792766,0.4044827802,
1992668000,0.3221926133,0.3077241442,
1998667000,0.4051934944,0.1728902585,
2004666000,0.4348810443,0.01780066941,
2010665000,0.4065999962,-0.1373020357,
2016664000,0.3256842684,-0.271519285,
2022663000,0.2024913355,-0.367740985,
2028662000,0.05370679303,-0.4137808716,
2034661000,-0.1009684324,-0.4045249641,
2040660000,-0.2424922146,-0.341416275,
2046659000,-0.3508696612,-0.2325792151,
2052658000,-0.4140657453,-0.09247855491,
2058657000,-0.423253346,0.06022128375,
2064656000,-0.3774157847,0.2062084567,
2070655000,-0.2826064253,0.3257160738,
2076654000,-0.1511719869,0.4029927247,
2082653000,-0.0005670116941,0.4281164614,
2088652000,0.149076688,0.3962197272,
2094651000,0.2760312248,0.3126863306,
2100650000,0.3642396687,0.1887425104,
2106649000,0.4000346828,0.04245575738,
2112648000,0.380106441,-0.1060690918,
2118647000,0.3078720272,-0.2357223368,
2124646000,0.1938611072,-0.3295488376,
2130645000,0.05564455995,-0.3761356493,
2136644000,-0.08912652639,-0.370207,
2142643000,-0.2211732645,-0.3141255383,
2148642000,-0.3238334119,-0.2156019801,
2154641000,-0.3855827588,-0.08785881108,
2160640000,-0.3987831628,0.05291470338,
2166639000,-0.361752486,0.189146127,
2172638000,-0.2793025765,0.3042362221,
2178637000,-0.1624091095,0.3832333104,
2184636000,-0.02407339256,0.4172892758,
2190635000,0.1186447446,0.3991980639,
2196634000,0.2463398221,0.3323240901,
2202633000,0.3415324652,0.2236089724,
2208632000,0.3919052453,0.08769872131,
2214631000,0.3891481293,-0.05722025879,
2220630000,0.333828027,-0.1913782544,
2226629000,0.234323093,-0.2956606219,
2232628000,0.1042106366,-0.3569725495,
2238627000,-0.03907998055,-0.3670471695,
2244626000,-0.175140254,-0.3266768217,
2250625000,-0.2873585307,-0.2404196259,
2256624000,-0.3610036428,-0.1208748656,
2262623000,-0.3874846008,0.01602642427,
2268622000,-0.3646853414,0.1530474406,
2274621000,-0.2953025325,0.2730459383,
2280620000,-0.1885494658,0.3617116571,
2286619000,-0.05709994756,0.4090474445,
2292618000,0.08212623638,0.4066559557,
2298617000,0.2131807469,0.3553430223,
2304616000,0.317492518,0.2611679974,
2310615000,0.3814144675,0.1357945263,
2316614000,0.3963901055,-0.004875987683,
2322613000,0.3595164274,-0.1417250775,
2328612000,0.2756349207,-0.255965689,
2334611000,0.1563386053,-0.331012461,
2340610000,0.01827598172,-0.3585429381,
2346609000,-0.1194443235,-0.3339197179,
2352608000,-0.2378870705,-0.2613976097,
2358607000,-0.321139442,-0.1518498783,
2364606000,-0.3593796085,-0.02123033876,
2370605000,-0.3477959842,0.1141087938,
2376604000,-0.2897012878,0.2353797081,
2382603000,-0.1919219304,0.3283903621,
2388602000,-0.06956434302,0.380734688,
2394601000,0.0634763211,0.3859110895,
2400600000,0.1897514197,0.3450024583,
2406599000,0.2938055349,0.2616183694,
2412598000,0.3618438067,0.1466687868,
2418597000,0.3846965386,0.0142209142,
2424596000,0.3585391043,-0.1176728144,
2430595000,0.2876639389,-0.2320907073,
2436594000,0.17998781,-0.3136976768,
2442593000,0.05054598507,-0.3514975829,
2448592000,-0.08403558823,-0.339762526,
2454591000,-0.2053039479,-0.2813075093,
2460590000,-0.2972629033,-0.1839907811,
2466589000,-0.348159463,-0.06068839499,
2472588000,-0.3526691214,0.07217557903,
2478587000,-0.3091833155,0.1982855831,
2484586000,-0.2263313754,0.2998827005,
2490585000,-0.1124593985,0.3664649034,
2496584000,0.01779456512,0.3896561541,
2502583000,0.1462938169,0.3667041435,
2508582000,0.2600497134,0.2994721785,
2514581000,0.343524159,0.1965013454,
2520580000,0.3852512496,0.07031948314,
2526579000,0.3799642498,-0.06250658073,
2532578000,0.3271150965,-0.1854012051,
2538577000,0.2339826508,-0.2810003388,
2544576000,0.1124768231,-0.3361840411,
2550575000,-0.02063555257,-0.3434207235,
2556574000,-0.146270421,-0.301957731,
2562573000,-0.2471172299,-0.2178070759,
2568572000,-0.3095163335,-0.1039508736,
2574571000,-0.3270446144,0.02370318202,
2580570000,-0.2963202111,0.146949516,
2586569000,-0.2255716302,0.2515854308,
2592568000,-0.1229156387,0.3220251688,
2598567000,-0.003619505304,0.3521327066,
2604566000,0.118766523,0.3381304485,
2610565000,0.2281919914,0.2829953506,
2616564000,0.311708354,0.1935001105,
2622563000,0.3591947546,0.07993582097,
2628562000,0.3651818743,-0.04303956163,
2634561000,0.3261420457,-0.1620345382,
2640560000,0.2491916318,-0.2604228094,
2646559000,0.1411069347,-0.3257782627,
2652558000,0.01602047449,-0.3480362163,
2658557000,-0.1089864435,-0.3244076808,
2664556000,-0.218226955,-0.2564205998,
2670555000,-0.2957865181,-0.1537097713,
2676554000,-0.3295563449,-0.0301752811,
2682553000,-0.3159543893,0.09547237741,
2688552000,-0.2582445946,0.2077026138,
2694551000,-0.1645273585,0.289995602,
2700550000,-0.04867331073,0.3326613993,
2706549000,0.0730526264,0.3306457934,
2712548000,0.1851731598,0.2858086849,
2718547000,0.2732170417,0.2041804404,
2724546000,0.3269945776,0.09803131896,
2730545000,0.3390022907,-0.02023386829,
2736544000,0.3098189406,-0.1344869624,
2742543000,0.2420567669,-0.2313947551,
2748542000,0.144487848,-0.298561428,
2754541000,0.02916501969,-0.3273923132,
2760540000,-0.08929301137,-0.3138157522,
2766539000,-0.1959286294,-0.2589143686,
2772538000,-0.2760163286,-0.1695152832,
2778537000,-0.319853346,-0.05700652353,
2784536000,-0.3202614599,0.06300573473,
2790535000,-0.2776060159,0.1754801451,
2796534000,-0.1980425084,0.2648226086,
2802533000,-0.09262984875,0.3197297011,
2808532000,0.0253082727,0.333265516,
2814531000,0.1392009862,0.3044016184,
2820530000,0.2349448635,0.2365062303,
2826529000,0.2996992281,0.1395731496,
2832528000,0.3256397022,0.0270442386,
2838527000,0.3100012109,-0.08679652396,
2844526000,0.2551472144,-0.1873370418,
2850525000,0.1687476806,-0.2612599849,
2856524000,0.06188513211,-0.3001988417,
2862523000,-0.05167842341,-0.2974763476,
2868522000,-0.1561418956,-0.2556723858,
2874521000,-0.2382261284,-0.1787977577,
2880520000,-0.288002635,-0.07836070158,
2886519000,-0.2991895391,0.03317125041,
2892518000,-0.2698550196,0.1402369382,
2898517000,-0.20490685,0.2296557792,
2904516000,-0.1130652433,0.290153783,
2910515000,-0.005805967604,0.314485551,
2916514000,0.1028431631,0.2994766891,
2922513000,0.1986040488,0.24680295,
2928512000,0.2700069537,0.164218492,
2934511000,0.3075849302,0.06166861629,
2940510000,0.3065521722,-0.04809288664,
2946509000,0.2665615232,-0.1499585044,
2952508000,0.1930955061,-0.2313364138,
2958507000,0.09510943224,-0.2815861554,
2964506000,-0.01446051621,-0.2930402323,
2970505000,-0.120344284,-0.2646099443,
2976504000,-0.209605919,-0.1999903009,
2982503000,-0.2696444754,-0.108062988,
2988502000,-0.2916827395,-0.001214066545,
2994501000,-0.2752704456,0.106122124,
3000500000,-0.2217209963,0.2000691511,
3006499000,-0.1388752547,0.2686424291,
3012498000,-0.03728731201,0.3026572361,
