Frequency,S11_Real,S11_Imaginary,
1000000,0.9964268384,-0.002492723787,
6999000,0.9956121739,-0.0375710976,
12998000,0.9937520728,-0.06977332485,
18997000,0.9908442004,-0.1016105374,
24996000,0.9875999736,-0.1336221557,
30995000,0.9826275315,-0.1658075648,
36994000,0.9765874802,-0.197514025,
42993000,0.9698720988,-0.2285086879,
48992000,0.9618149074,-0.260075424,
54991000,0.9530475244,-0.2908841518,
60990000,0.9431501555,-0.322456334,
66989000,0.9323507068,-0.3526384584,
72988000,0.9208008126,-0.382562406,
78987000,0.9079192426,-0.4123504442,
84986000,0.8939990193,-0.4414424515,
90985000,0.8795467411,-0.4699886327,
96984000,0.863867407,-0.498239734,
102983000,0.8473059663,-0.5262314404,
108982000,0.8296709548,-0.5533382926,
114981000,0.8110778571,-0.580210372,
120980000,0.7921143819,-0.6057850009,
126979000,0.7721425139,-0.6311125268,
132978000,0.7513160578,-0.6555450493,
138977000,0.7295032778,-0.6797556561,
144976000,0.7068263907,-0.7027017732,
150975000,0.6839072136,-0.7250431138,
156974000,0.6598842135,-0.7469099864,
162973000,0.6355683878,-0.7676850858,
168972000,0.6103739031,-0.7875634775,
174971000,0.5846436461,-0.8068330371,
180970000,0.5583406663,-0.8251210994,
186969000,0.531045398,-0.8426433988,
192968000,0.5031724992,-0.8590876812,
198967000,0.475091646,-0.8747312147,
204966000,0.4462899175,-0.8892054365,
210965000,0.4173601108,-0.9031489441,
216964000,0.3878943827,-0.9160512827,
222963000,0.3579949276,-0.9276541069,
228962000,0.3275224675,-0.938467672,
234961000,0.2969571992,-0.9481184574,
240960000,0.2663438707,-0.9570458395,
246959000,0.2350406642,-0.9646387701,
252958000,0.2036225402,-0.9717091478,
258957000,0.1721117144,-0.9769443098,
264956000,0.1401623526,-0.9819211912,
270955000,0.1079927061,-0.9856786054,
276954000,0.07658966353,-0.9882861362,
282953000,0.04424922097,-0.9896970545,
288952000,0.0126343434,-0.9905152797,
294951000,-0.01940518936,-0.9898970869,
300950000,-0.05149304502,-0.9883374402,
306949000,-0.08360629936,-0.9858980986,
312948000,-0.1154175089,-0.9822874967,
318947000,-0.1467918154,-0.9778811103,
324946000,-0.1784714274,-0.9721797168,
330945000,-0.2093928923,-0.9659126877,
336944000,-0.240715519,-0.9581010582,
342943000,-0.2714234605,-0.9495263426,
348942000,-0.3015680672,-0.9401176321,
354941000,-0.33154632,-0.9292323345,
360940000,-0.3614590845,-0.917859989,
366939000,-0.3905435041,-0.9057739813,
372938000,-0.4198929061,-0.892233435,
378937000,-0.4483398193,-0.8781381469,
384936000,-0.4761507759,-0.8629704123,
390935000,-0.503402787,-0.8471872801,
396934000,-0.5304956183,-0.8300825723,
402933000,-0.5567898319,-0.8123301083,
408932000,-0.5826556335,-0.7935889429,
414931000,-0.6077334414,-0.7740822674,
420930000,-0.6320502779,-0.7542936886,
426929000,-0.6557885087,-0.7334147893,
432928000,-0.6789078983,-0.7115842091,
438927000,-0.7013288263,-0.6893897009,
444926000,-0.7232517968,-0.6664716062,
450925000,-0.7443918856,-0.6426618134,
456924000,-0.7643354308,-0.6183600389,
462923000,-0.7837407332,-0.593734555,
468922000,-0.8023812446,-0.5677913357,
474921000,-0.8205920552,-0.541687662,
480920000,-0.8369571529,-0.5149820622,
486919000,-0.8530763858,-0.4880990384,
492918000,-0.8684937458,-0.4604708915,
498917000,-0.8829000036,-0.4321901438,
504916000,-0.8958052081,-0.4030366734,
510915000,-0.9084028425,-0.3741838317,
516914000,-0.9196251756,-0.3450255588,
522913000,-0.9300554458,-0.3148040943,
528912000,-0.9397064636,-0.2857271173,
534911000,-0.9484803253,-0.2548060109,
540910000,-0.9558771662,-0.225189826,
546909000,-0.9625772924,-0.194361838,
552908000,-0.9682583174,-0.163222246,
558907000,-0.9731822692,-0.1321416823,
564906000,-0.9773381948,-0.1011322594,
570905000,-0.9796619175,-0.0701714211,
576904000,-0.9818811532,-0.03849594388,
582903000,-0.9822178539,-0.007541710234,
588902000,-0.9826936101,0.02377663292,
594901000,-0.9808782423,0.05492577371,
600900000,-0.9787990391,0.08668468203,
606899000,-0.9764091743,0.1177087252,
612898000,-0.971647655,0.1479822368,
618897000,-0.9668894937,0.179972527,
624896000,-0.9607999608,0.2099730025,
630895000,-0.9531383453,0.2401131606,
636894000,-0.9451162577,0.2706626786,
642893000,-0.9359458921,0.3008042805,
648892000,-0.9265656541,0.3299040763,
654891000,-0.9157483458,0.3596104334,
660890000,-0.9037170175,0.3883868978,
666889000,-0.8911157084,0.416868629,
672888000,-0.8779339713,0.4453135455,
678887000,-0.863247933,0.4732487849,
684886000,-0.8480590997,0.500122096,
690885000,-0.8312925985,0.5277391153,
696884000,-0.8147074803,0.5541255436,
702883000,-0.7970654164,0.5794305758,
708882000,-0.7783907833,0.6045499172,
714881000,-0.7589770353,0.6291354414,
720880000,-0.7384761917,0.6533118896,
726879000,-0.7170434047,0.6767681789,
732878000,-0.6953857198,0.6990025523,
738877000,-0.6734097852,0.7206448317,
744876000,-0.6496750555,0.7419590734,
750875000,-0.625916593,0.7618969524,
756874000,-0.6011468953,0.7820777396,
762873000,-0.5758483426,0.8009103468,
768872000,-0.5501827476,0.8189028186,
774871000,-0.5236857143,0.835979989,
780870000,-0.4967124412,0.8525446394,
786869000,-0.4694577461,0.8678607781,
792868000,-0.4420555138,0.8824740058,
798867000,-0.4137670865,0.8960457735,
804866000,-0.3847669314,0.9090346632,
810865000,-0.3562542522,0.9205417806,
816864000,-0.326302704,0.9315612248,
822863000,-0.2963000136,0.9412457718,
828862000,-0.266543521,0.950432788,
834861000,-0.2362799306,0.958445358,
840860000,-0.2059686492,0.9655306581,
846859000,-0.1742708842,0.9718759756,
852858000,-0.1440092939,0.9769667764,
858857000,-0.1128348689,0.98142814,
864856000,-0.08112166833,0.983901614,
870855000,-0.04932595634,0.9867430168,
876854000,-0.01752818607,0.988201965,
882853000,0.01302665786,0.9882732873,
888852000,0.04490442595,0.9868423216,
894851000,0.07619456858,0.9854391716,
900850000,0.1077729335,0.9834703526,
906849000,0.1396676091,0.9788406474,
912848000,0.1710544768,0.9738551795,
918847000,0.2013961365,0.967584864,
924846000,0.2325928093,0.9609793693,
930845000,0.2632612259,0.9523950807,
936844000,0.2932011088,0.9433698244,
942843000,0.3230722352,0.9335931717,
948842000,0.3526117475,0.9232506818,
954841000,0.3821675348,0.9114310319,
960840000,0.4122484343,0.8988886034,
966839000,0.4402329108,0.8854008372,
972838000,0.4684156201,0.8714329614,
978837000,0.4961261347,0.8555739551,
984836000,0.522819862,0.8383978841,
990835000,0.5494210626,0.8213160174,
996834000,0.575618973,0.8037335648,
1002833000,0.600918846,0.7844142876,
1008832000,0.6258451994,0.7646328588,
1014831000,0.6497435281,0.7449972378,
1020830000,0.6722970323,0.7235114621,
1026829000,0.6955951188,0.7011201452,
1032828000,0.7177812561,0.6785407832,
1038827000,0.7396573601,0.6545635293,
1044826000,0.7594814766,0.6308176517,
1050825000,0.7776066816,0.6072027814,
1056824000,0.7982224288,0.5800378591,
1062823000,0.8159248813,0.5539003783,
1068822000,0.8332798365,0.5271049576,
1074821000,0.849967971,0.5005074111,
1080820000,0.8647938215,0.4718830304,
1086819000,0.8792819411,0.4437659168,
1092818000,0.8925440583,0.4145097742,
1098817000,0.9049854911,0.3861454834,
1104816000,0.916617332,0.3564832304,
1110815000,0.9273376167,0.3264124458,
1116814000,0.9368984959,0.2962775549,
1122813000,0.9456999401,0.2658800682,
1128812000,0.9534229504,0.2347472409,
1134811000,0.960121297,0.2038886711,
1140810000,0.9660048471,0.1725249737,
1146809000,0.9706793909,0.1414041472,
1152808000,0.9744715424,0.1101408291,
1158807000,0.9772349538,0.07826519567,
1164806000,0.9789393559,0.04685937014,
1170805000,0.9795532028,0.01510464692,
1176804000,0.9792382223,-0.01627045962,
1182803000,0.977767539,-0.04812601139,
1188802000,0.9749673004,-0.08008205637,
1194801000,0.9715503245,-0.1115774529,
1200800000,0.9667732012,-0.1430841021,
1206799000,0.9610622422,-0.1740165557,
1212798000,0.9540137712,-0.2050169281,
1218797000,0.94666178,-0.2361549512,
1224796000,0.9377161497,-0.2661213267,
1230795000,0.9282705933,-0.2962889389,
1236794000,0.9173691058,-0.3258749388,
1242793000,0.9056224026,-0.3555049575,
1248792000,0.8928681947,-0.3842788501,
1254791000,0.8796619094,-0.4130798018,
1260790000,0.8653290313,-0.4416507255,
1266789000,0.8494248111,-0.468991117,
1272788000,0.8335155871,-0.4957932344,
1278787000,0.8171428291,-0.5223231048,
1284786000,0.7984120217,-0.5486441266,
1290785000,0.7804437205,-0.5737705505,
1296784000,0.7606827922,-0.5989404388,
1302783000,0.7406192367,-0.6234732553,
1308782000,0.7195896167,-0.6474782634,
1314781000,0.6990115432,-0.6694505497,
1320780000,0.6766141132,-0.6914960133,
1326779000,0.6524502269,-0.7132141549,
1332778000,0.6287703714,-0.7341985075,
1338777000,0.6047982481,-0.7538759337,
1344776000,0.5800377778,-0.7726401582,
1350775000,0.5539984424,-0.7916110401,
1356774000,0.5278889755,-0.8090996784,
1362773000,0.5014509237,-0.8258965265,
1368772000,0.4740928352,-0.8412068774,
1374771000,0.4462008074,-0.8568704548,
1380770000,0.4183548163,-0.869822585,
1386769000,0.3895290312,-0.8827207323,
1392768000,0.3602089137,-0.8946909933,
1398767000,0.3319253161,-0.9051390728,
1404766000,0.3020122542,-0.9162565022,
1410765000,0.2718404678,-0.9251843631,
1416764000,0.2416919036,-0.9332780226,
1422763000,0.2114469155,-0.9412491959,
1428762000,0.1800308991,-0.9471366248,
1434761000,0.1491677124,-0.9524226965,
1440760000,0.1184042935,-0.9567007502,
1446759000,0.08725606153,-0.9597656396,
1452758000,0.05554173167,-0.9635772282,
1458757000,0.02404947703,-0.9651689416,
1464756000,-0.007332515303,-0.9650184332,
1470755000,-0.03916796417,-0.9634642001,
1476754000,-0.07039012761,-0.9616515034,
1482753000,-0.100735772,-0.9585710487,
1488752000,-0.1317368362,-0.9547464919,
1494751000,-0.162441591,-0.9501174242,
1500750000,-0.1923228207,-0.9460552912,
1506749000,-0.2235634655,-0.9387147201,
1512748000,-0.2544695926,-0.9312491524,
1518747000,-0.2843206013,-0.9228397045,
1524746000,-0.3136463824,-0.9130717561,
1530745000,-0.3435779475,-0.9027310419,
1536744000,-0.3722941681,-0.8909620424,
1542743000,-0.4005387522,-0.8785101078,
1548742000,-0.4289579997,-0.8650858115,
1554741000,-0.4563553915,-0.8506242284,
1560740000,-0.4838506908,-0.8355200352,
1566739000,-0.5102292477,-0.8190616715,
1572738000,-0.5365058558,-0.8024015454,
1578737000,-0.5616825857,-0.7848855024,
1584736000,-0.5865006407,-0.7660247093,
1590735000,-0.6108377296,-0.7469963367,
1596734000,-0.6351339733,-0.7264110201,
1602733000,-0.6581050629,-0.705448198,
1608732000,-0.6801099057,-0.6843953257,
1614731000,-0.7013496093,-0.6612069125,
1620730000,-0.7227462636,-0.6385589137,
1626729000,-0.7419690961,-0.6152528062,
1632728000,-0.7612914307,-0.5908917164,
1638727000,-0.7799476969,-0.5655241744,
1644726000,-0.7978871705,-0.5408969128,
1650725000,-0.8130589631,-0.513856456,
1656724000,-0.8306709094,-0.4889185713,
1662723000,-0.8455247775,-0.4607406653,
1668722000,-0.8612059423,-0.4344757893,
1674721000,-0.873227248,-0.4064570355,
1680720000,-0.886630887,-0.377576913,
1686719000,-0.8977901711,-0.3492175187,
1692718000,-0.9083825339,-0.3212244177,
1698717000,-0.9188769165,-0.2912708706,
1704716000,-0.9274133811,-0.261541981,
1710715000,-0.935198331,-0.2318175842,
1716714000,-0.9419769131,-0.2022953995,
1722713000,-0.9482199806,-0.1714592792,
1728712000,-0.9521156297,-0.1408593021,
1734711000,-0.9583507308,-0.1104316256,
1740710000,-0.960916446,-0.07938971954,
1746709000,-0.9623208255,-0.04816648118,
1752708000,-0.9647102092,-0.01838634914,
1758707000,-0.9640941405,0.01465008431,
1764706000,-0.9666160851,0.04499341539,
1770705000,-0.9629356756,0.07596453602,
1776704000,-0.9594716195,0.1062050195,
1782703000,-0.9568304749,0.137933983,
1788702000,-0.9513645046,0.1682313593,
1794701000,-0.9461580592,0.1973357105,
1800700000,-0.9340980968,0.2326926814,
1806699000,-0.9305561024,0.2592948668,
1812698000,-0.9214446538,0.2869991272,
1818697000,-0.9110284761,0.3163211954,
1824696000,-0.9022643509,0.3459111906,
1830695000,-0.8904944536,0.3743335139,
1836694000,-0.8787016905,0.40342904,
1842693000,-0.8655493509,0.4305382277,
1848692000,-0.8517903297,0.459655182,
1854691000,-0.8367931767,0.4854234731,
1860690000,-0.821514119,0.5124118964,
1866689000,-0.8048735829,0.5381827784,
1872688000,-0.7864797263,0.564257348,
1878687000,-0.7690661861,0.5884165251,
1884686000,-0.7499279294,0.6129902852,
1890685000,-0.7301704906,0.6383323519,
1896684000,-0.7096488819,0.6608996062,
1902683000,-0.6882783744,0.6822866557,
1908682000,-0.6660297035,0.7041965316,
1914681000,-0.6438447056,0.7255478759,
1920680000,-0.6199577558,0.7458792464,
1926679000,-0.5960286404,0.7651951133,
1932678000,-0.5716022793,0.7833122098,
1938677000,-0.5467847878,0.8022006533,
1944676000,-0.5216618809,0.8188870563,
1950675000,-0.4951635632,0.8355090564,
1956674000,-0.4686384426,0.8509972372,
1962673000,-0.4413940051,0.8655821202,
1968672000,-0.4136336638,0.8793015399,
1974671000,-0.385678475,0.8925372298,
1980670000,-0.3571957988,0.9047300126,
1986669000,-0.328434746,0.9154146661,
1992668000,-0.2998412719,0.9248732864,
1998667000,-0.2701681896,0.9342825916,
2004666000,-0.2407932997,0.9429597575,
2010665000,-0.2102741435,0.9496520245,
2016664000,-0.1810973479,0.9560253924,
2022663000,-0.1503377553,0.9609508749,
2028662000,-0.1199608569,0.9649403865,
2034661000,-0.0904490797,0.9686126659,
2040660000,-0.05847801886,0.9711759334,
2046659000,-0.02803503949,0.9723542135,
2052658000,0.003114383771,0.9732716635,
2058657000,0.03384520949,0.9718797862,
2064656000,0.06463252011,0.9704682551,
2070655000,0.09579402293,0.9675226151,
2076654000,0.1254801788,0.9650589343,
2082653000,0.1558725707,0.9607211677,
2088652000,0.1868491002,0.9554215834,
2094651000,0.216253564,0.9482459679,
2100650000,0.245953084,0.9413074938,
2106649000,0.2762693874,0.9327395297,
2112648000,0.3060535291,0.9232460316,
2118647000,0.3352757053,0.9122943099,
2124646000,0.3634765344,0.9003478331,
2130645000,0.3919634367,0.8889224249,
2136644000,0.4201680767,0.87607608,
2142643000,0.4467889336,0.8607146176,
2148642000,0.4743154504,0.846117977,
2154641000,0.5027194078,0.8300860487,
2160640000,0.5287715161,0.8130459403,
2166639000,0.5537280015,0.7966330321,
2172638000,0.5786701652,0.7780421833,
2178637000,0.6026020291,0.7596525049,
2184636000,0.6275418513,0.7389968285,
2190635000,0.6510464002,0.7186885458,
2196634000,0.6738718982,0.6974255556,
2202633000,0.6953128345,0.6757731467,
2208632000,0.7154663076,0.653764751,
2214631000,0.7361943786,0.6310731891,
2220630000,0.7556305266,0.607151549,
2226629000,0.7740966246,0.5820970407,
2232628000,0.7916797043,0.5565867182,
2238627000,0.8091246802,0.5308458779,
2244626000,0.8246158826,0.5039067329,
2250625000,0.8404694152,0.4770053565,
2256624000,0.8552306791,0.449648705,
2262623000,0.8693630308,0.4215410281,
2268622000,0.8821276539,0.3934930245,
2274621000,0.8943307652,0.3647489193,
2280620000,0.905716853,0.335640801,
2286619000,0.9160952087,0.3063904219,
2292618000,0.9254679693,0.2768889422,
2298617000,0.9341214776,0.2470438841,
2304616000,0.9414934166,0.2171031032,
2310615000,0.9480113212,0.1870633915,
2316614000,0.9534390228,0.1569261802,
2322613000,0.9583386695,0.1267337765,
2328612000,0.9613502265,0.09607904815,
2334611000,0.9642832655,0.06558541179,
2340610000,0.9663366383,0.03457563914,
2346609000,0.9663339723,0.00383406826,
2352608000,0.9662088242,-0.02687430831,
2358607000,0.964678231,-0.05749414726,
2364606000,0.9624881637,-0.0882136542,
2370605000,0.9589266537,-0.1189384071,
2376604000,0.9544730719,-0.1490254145,
2382603000,0.9492485631,-0.1792114811,
2388602000,0.9417967431,-0.2091097753,
2394601000,0.9356009696,-0.2395391924,
2400600000,0.9270422705,-0.2690055482,
2406599000,0.917403813,-0.2982262424,
2412598000,0.9066191808,-0.3273126336,
2418597000,0.8962858505,-0.3556533934,
2424596000,0.8847366167,-0.383945248,
2430595000,0.8718638222,-0.411524779,
2436594000,0.8580909702,-0.4387764339,
2442593000,0.8430075059,-0.4662193882,
2448592000,0.8280716432,-0.494293372,
2454591000,0.8120813292,-0.518947765,
2460590000,0.7940198375,-0.5452082123,
2466589000,0.7761682243,-0.5674479708,
2472588000,0.7573857591,-0.5942673576,
2478587000,0.7379373249,-0.6175097104,
2484586000,0.7171994536,-0.6405990631,
2490585000,0.6954324549,-0.6642411272,
2496584000,0.6735972157,-0.6844157801,
2502583000,0.6514353971,-0.7055324973,
2508582000,0.6273019947,-0.7260359957,
2514581000,0.6030968785,-0.7462150028,
2520580000,0.5790990152,-0.7647992783,
2526579000,0.5538321221,-0.7825993778,
2532578000,0.528124534,-0.8007342254,
2538577000,0.5026614826,-0.8172926935,
2544576000,0.4750737643,-0.8326896917,
2550575000,0.4482588843,-0.8459030376,
2556574000,0.4206740434,-0.8619452595,
2562573000,0.3930573131,-0.8726777055,
2568572000,0.364220083,-0.8854269702,
2574571000,0.3361295713,-0.8962297419,
2580570000,0.3065318091,-0.9064095431,
2586569000,0.2759213362,-0.9155359374,
2592568000,0.2473887369,-0.9238892625,
2598567000,0.2165850886,-0.9309408891,
2604566000,0.1861129024,-0.9368558731,
2610565000,0.1559654046,-0.942899781,
2616564000,0.1253617521,-0.9468650605,
2622563000,0.09448650443,-0.9504881013,
2628562000,0.06415126364,-0.9527462579,
2634561000,0.03214952894,-0.9536222308,
2640560000,0.000822598101,-0.9542962568,
2646559000,-0.02984815397,-0.954601752,
2652558000,-0.06133450091,-0.9521183947,
2658557000,-0.09302173311,-0.9493301398,
2664556000,-0.123109772,-0.9469558651,
2670555000,-0.1548610424,-0.9428016504,
2676554000,-0.1863218954,-0.9368111116,
2682553000,-0.2166944852,-0.9300939517,
2688552000,-0.2475246781,-0.9224620577,
2694551000,-0.2766288044,-0.9134038372,
2700550000,-0.3082270224,-0.9044522671,
2706549000,-0.3377442569,-0.8928269686,
2712548000,-0.3670566015,-0.8820419025,
2718547000,-0.3965987046,-0.8680337782,
2724546000,-0.4248645735,-0.8560251848,
2730545000,-0.4517130017,-0.841982113,
2736544000,-0.4799143403,-0.8265321214,
2742543000,-0.5075449798,-0.8103709664,
2748542000,-0.5336118133,-0.7933952659,
2754541000,-0.559064249,-0.7741829479,
2760540000,-0.5854781012,-0.7559423424,
2766539000,-0.6106057398,-0.7354212267,
2772538000,-0.6332742794,-0.7148816677,
2778537000,-0.6577443114,-0.6922085341,
2784536000,-0.6790613565,-0.6722103115,
2790535000,-0.7008247802,-0.647938847,
2796534000,-0.7218171787,-0.6248990802,
2802533000,-0.7432000913,-0.5992522973,
2808532000,-0.760327957,-0.5735349175,
2814531000,-0.7803805362,-0.5499117055,
2820530000,-0.7987782514,-0.5241106681,
2826529000,-0.8149794469,-0.497618078,
2832528000,-0.8309726825,-0.469395773,
2838527000,-0.8445901128,-0.4417030841,
2844526000,-0.8599977363,-0.4134151624,
2850525000,-0.8720421513,-0.3870473631,
2856524000,-0.88546195,-0.3548894163,
2862523000,-0.8961368181,-0.3259170134,
2868522000,-0.9066137289,-0.2947053278,
2874521000,-0.9160399094,-0.2663234216,
2880520000,-0.9240607701,-0.2371796118,
2886519000,-0.9319266674,-0.2041463188,
2892518000,-0.9372996333,-0.1738165311,
2898517000,-0.9420633044,-0.1431965641,
2904516000,-0.9455403908,-0.1122018208,
2910515000,-0.9504401733,-0.07995063486,
2916514000,-0.9516864182,-0.04967355716,
2922513000,-0.952410113,-0.01730448815,
2928512000,-0.9538115855,0.01440483861,
2934511000,-0.9505032639,0.04470836012,
2940510000,-0.9485545608,0.07781710016,
2946509000,-0.9470652056,0.1072788501,
2952508000,-0.9408274284,0.138410629,
2958507000,-0.9378967276,0.1683155244,
2964506000,-0.9294869597,0.2016220207,
2970505000,-0.9221091507,0.2316320983,
2976504000,-0.9149831018,0.2612517376,
2982503000,-0.9077070545,0.2898780317,
2988502000,-0.8948388081,0.3229943386,
2994501000,-0.8835274321,0.3506574322,
3000500000,-0.8701391695,0.3784398965,
3006499000,-0.8589207883,0.4055392685,
3012498000,-0.8448692685,0.4337952215,
