# HZ S RI R 50
10000000 0.007971685188522037 0.006049814746911802 0.995997757226369 -0.02452675089925271 0 0 0 0
12931373 0.010987394601924208 0.003162165904340931 0.996937988854009 -0.032769907965994965 0 0 0 0
15862746 0.012641432004643106 0.0003971225097412529 0.9973674838086508 -0.04116307067617577 0 0 0 0
18794119 0.013279864709711136 -0.00294926894981364 0.998511317812572 -0.048213605003163344 0 0 0 0
21725492 0.012832380400612431 -0.006247318360588393 0.997853354275477 -0.056389005255530596 0 0 0 0
24656865 0.01225417140052456 -0.009232639479357688 0.9964851718754055 -0.06443265918944523 0 0 0 0
27588238 0.010621121485490805 -0.012344871240513816 0.9957647297817376 -0.07178100144649745 0 0 0 0
30519611 0.008619091248672738 -0.014677085573877015 0.9951718236917209 -0.07972189236956309 0 0 0 0
33450984 0.006154527229849384 -0.016456302574978817 0.9945692633360012 -0.08668871843231266 0 0 0 0
36382357 0.003242009105055498 -0.017964385649690592 0.9938214746212419 -0.09447121773416146 0 0 0 0
39313730 0.0001591524267002192 -0.018731031602002565 0.9931318638239526 -0.10212402170803205 0 0 0 0
42245103 -0.0028077345843915704 -0.01932600118481026 0.9920800013410385 -0.10968148152779474 0 0 0 0
45176476 -0.00539896160953324 -0.01809325061267211 0.9909254387754343 -0.11746089397582972 0 0 0 0
48107849 -0.008546330456536867 -0.018109975433011998 0.9897675794217203 -0.12493545420179905 0 0 0 0
51039222 -0.011352461224292142 -0.0166377754475556 0.988767224281476 -0.1323936506041526 0 0 0 0
53970595 -0.013849267768585792 -0.014800384402557612 0.9877372677113752 -0.13926096204121688 0 0 0 0
56901968 -0.01592098948237024 -0.012440091766517102 0.9864079183669735 -0.14649766794047075 0 0 0 0
59833341 -0.017391294402197995 -0.009647488158626667 0.9856543167394601 -0.15472100875898667 0 0 0 0
62764714 -0.018157084691794025 -0.0070647678380090975 0.9842066450327223 -0.16214509781061132 0 0 0 0
65696087 -0.018557096880117353 -0.004358927578542255 0.9827215818845804 -0.16978354199750348 0 0 0 0
68627460 -0.01825520171720165 -0.00140032359560182 0.9808908262574773 -0.17665338162767877 0 0 0 0
71558833 -0.017450146850361614 0.00141064312941646 0.9794907437062169 -0.18434609694672918 0 0 0 0
74490206 -0.016150071738243288 0.004054646300933725 0.9785014152575764 -0.19185361088096634 0 0 0 0
77421579 -0.014298254123394654 0.006311960883396655 0.9764291494591221 -0.19877925718156686 0 0 0 0
80352952 -0.01237781858036296 0.00789357020505883 0.9766235211774638 -0.2052753255592237 0 0 0 0
83284325 -0.009770147386448848 0.00956144016982533 0.9729986196918884 -0.21338761077938273 0 0 0 0
86215698 -0.007130050422221116 0.010461292688896577 0.9713479168763729 -0.2199183185547435 0 0 0 0
89147071 -0.004029659475664762 0.01026177357404059 0.9699509890843926 -0.2282193120518956 0 0 0 0
92078444 -0.001565391557337977 0.009741128747923673 0.9683858963406557 -0.23496675337498024 0 0 0 0
95009817 0.0008215627012679701 0.00914890536157202 0.9658087575020545 -0.24249745767646938 0 0 0 0
97941190 0.0032529933451859224 0.007904213932888511 0.9636862383207591 -0.2497552564168467 0 0 0 0
100872563 0.0061167173819986695 0.0055189281079065285 0.9617534808323229 -0.2571901997153002 0 0 0 0
103803936 0.007205158528697009 0.003479897794626645 0.9602113282122275 -0.26429664744742265 0 0 0 0
106735309 0.008121220684364617 0.000868880818670397 0.9570928258985831 -0.2727576445917843 0 0 0 0
109666682 0.008621220807602716 -0.0020424551095928347 0.9553454270899748 -0.2779621941220566 0 0 0 0
112598055 0.009061995269813071 -0.005118815708916451 0.953133415239969 -0.28547805074627425 0 0 0 0
115529428 0.008488693405391764 -0.007728493596678508 0.9515595368026162 -0.29298384160487956 0 0 0 0
118460801 0.007407203790642051 -0.010421824002165923 0.9484760797270246 -0.2998714924954265 0 0 0 0
121392174 0.005881369793409762 -0.012938345426158569 0.9472638120626183 -0.3071215237320947 0 0 0 0
124323547 0.003929747896648051 -0.01506918820683754 0.9444303264761461 -0.31388190034340546 0 0 0 0
127254920 0.0012350680788864685 -0.017238812988636717 0.9416101437710378 -0.32143212311765856 0 0 0 0
130186293 -0.0009719906089452969 -0.018671870663345514 0.9394290862085917 -0.327763002763833 0 0 0 0
133117666 -0.004026976091304262 -0.019210590785744115 0.9375331896497056 -0.33477664707832216 0 0 0 0
136049039 -0.0074366314872441166 -0.019784399115327384 0.9348388175532862 -0.34154172873409516 0 0 0 0
138980412 -0.010248053494552246 -0.019629491900991933 0.9329981052311505 -0.3494492702977847 0 0 0 0
141911785 -0.013103259151240165 -0.01862438535855016 0.9302196951309637 -0.3554600725988374 0 0 0 0
144843158 -0.01588555540801969 -0.016907346777884906 0.9260883122396191 -0.3626848236552055 0 0 0 0
147774531 -0.018187962852016 -0.015235802420205582 0.9235685761573369 -0.3712683761346578 0 0 0 0
150705904 -0.02022517348572885 -0.012990464710078777 0.9201921772588149 -0.3762455233092533 0 0 0 0
153637277 -0.021983113476468173 -0.010612280242795535 0.9188676344130456 -0.3832074077569811 0 0 0 0
156568650 -0.023212643049011102 -0.007643787401994996 0.9156182434173445 -0.3906746827329436 0 0 0 0
159500023 -0.023605955750130494 -0.004637986375686615 0.9115463439665951 -0.39762358244269463 0 0 0 0
162431396 -0.02368241408249272 -0.001548510038740049 0.9084171626343646 -0.4054656476029256 0 0 0 0
165362769 -0.02324814579785868 0.0012509231559242333 0.9054692685893263 -0.4115484658840363 0 0 0 0
168294142 -0.022156079488591725 0.004062302902414289 0.9037258501203123 -0.41702635115235226 0 0 0 0
171225515 -0.0207774926895717 0.006676766291528712 0.8978463438105052 -0.4263760631516861 0 0 0 0
174156888 -0.018850737578083376 0.008692321177723974 0.8953383869706597 -0.43095884119501615 0 0 0 0
177088261 -0.016602529861801482 0.010614795603566117 0.8937494939675016 -0.43855020992581106 0 0 0 0
180019634 -0.014482120107836822 0.011821335200379321 0.88877018684091 -0.44504334062987394 0 0 0 0
182951007 -0.011844310943377382 0.012573660257337386 0.8853130426114928 -0.45029010670226943 0 0 0 0
185882380 -0.008952673037575897 0.012667541264181816 0.8814778894403288 -0.456426680846186 0 0 0 0
188813753 -0.006336873857943999 0.012448042592270328 0.8784866245998896 -0.46574252424152335 0 0 0 0
191745126 -0.004101061194669147 0.0115143846582472 0.8751460940665736 -0.4704990632926654 0 0 0 0
194676499 -0.0018003118470118617 0.0102667005871063 0.8716557373582584 -0.47675676679097795 0 0 0 0
197607872 0.0001737977781247359 0.008656797039676761 0.8681765216737921 -0.48540893393362017 0 0 0 0
200539245 0.0016436690056313885 0.006557155212009235 0.8659267129247631 -0.48780881528342407 0 0 0 0
203470618 0.0028902597501997483 0.004424595844370594 0.8614022861530791 -0.49644815162588585 0 0 0 0
206401991 0.003338253456719754 0.002253181861689211 0.8568421252136813 -0.5010887984571842 0 0 0 0
209333364 0.003460795224923089 -0.00030381756345655237 0.8519590956813204 -0.5117014357404879 0 0 0 0
212264737 0.0030796233595876627 -0.002834389176181572 0.8495275156031435 -0.5156894061990519 0 0 0 0
215196110 0.0021464641238920527 -0.004868341940464309 0.846302679806463 -0.5225156363713709 0 0 0 0
218127483 0.000750921791332852 -0.006735821891291446 0.842304961339947 -0.5270228404063803 0 0 0 0
221058856 -0.0011178882682854612 -0.008331359314423479 0.8369398878784747 -0.5355185661059765 0 0 0 0
223990229 -0.002964779915464936 -0.009605073303464065 0.8340379893252454 -0.5400750941475191 0 0 0 0
226921602 -0.005432908668653139 -0.01050436901936097 0.8317417297336497 -0.545385540875489 0 0 0 0
229852975 -0.007528000321162602 -0.010617253462214744 0.8267897399791714 -0.5522103758939952 0 0 0 0
232784348 -0.0100348699575378 -0.010410117766688083 0.822519226114816 -0.5584760265179687 0 0 0 0
235715721 -0.012597430055467021 -0.009880200459443765 0.8157938686841841 -0.5672841273496483 0 0 0 0
238647094 -0.014384905435920449 -0.008762769835127493 0.8140744579514937 -0.5707587366559638 0 0 0 0
241578467 -0.01638400100747918 -0.0068991586136973254 0.8107664685346937 -0.5745073971428031 0 0 0 0
244509840 -0.018149456629458955 -0.004914017671932989 0.8043032496490669 -0.5833454617709668 0 0 0 0
247441213 -0.018972062007131564 -0.0025435706370641044 0.8013661916172824 -0.5879582939026118 0 0 0 0
250372586 -0.02009858709794293 -0.0002574037980110343 0.7936097116726644 -0.5959501387877567 0 0 0 0
253303959 -0.020061400390629692 0.0023769325570880836 0.7902508066083224 -0.6016515618410051 0 0 0 0
256235332 -0.019843318923605226 0.005088227835042741 0.7888237107552126 -0.6053478486974503 0 0 0 0
259166705 -0.018946026432301644 0.007805296723368016 0.7813698609317212 -0.6120247083731306 0 0 0 0
262098078 -0.017739313336058514 0.010055523160616319 0.7737825121906508 -0.6233875369642337 0 0 0 0
265029451 -0.01593549638558871 0.012118186186854868 0.7744331849350756 -0.6227711414561229 0 0 0 0
267960824 -0.013835357557318689 0.013724013491004449 0.7678586088821642 -0.6298522351593687 0 0 0 0
270892197 -0.011152573453864056 0.014874133032568314 0.7612225990704381 -0.6392364789615393 0 0 0 0
273823570 -0.00855800506437002 0.015911904934477653 0.7574612107561404 -0.6430823083065329 0 0 0 0
276754943 -0.005564453457374846 0.01610045339640793 0.7505385331341665 -0.6492853038481886 0 0 0 0
279686316 -0.0025746179261508058 0.016276189716755388 0.7496781863543115 -0.6528813007935094 0 0 0 0
282617689 0.00019276593050168917 0.015183354393993858 0.7444745990950253 -0.6570892403021474 0 0 0 0
285549062 0.0027463741199915616 0.013843161245424415 0.7383982596626046 -0.6640164032542748 0 0 0 0
288480435 0.005082573487961133 0.01217564498767277 0.7360886574628157 -0.6667564692106522 0 0 0 0
291411808 0.007230427094253519 0.010173332680860856 0.7305137671420214 -0.6721166651734245 0 0 0 0
294343181 0.008583947290260801 0.007694442874832055 0.7223912605801627 -0.6805441292377324 0 0 0 0
297274554 0.009573407900530316 0.004681546748288365 0.718991698547243 -0.6857233377888299 0 0 0 0
300205927 0.010103518377823825 0.001837866542776198 0.7103347950063452 -0.6916955139436722 0 0 0 0
303137300 0.009912494661405544 -0.001016358806779004 0.7075071045293704 -0.6951346856659384 0 0 0 0
306068673 0.009349341982924341 -0.003908948591898963 0.7030103823582412 -0.7024339375632719 0 0 0 0
309000046 0.008075666441925259 -0.006494872366750718 0.6975697607545213 -0.7068353247040001 0 0 0 0
311931419 0.006363950210493135 -0.00952796385040993 0.6929234378212984 -0.7118010701001255 0 0 0 0
314862792 0.004427641374844527 -0.011134553391640437 0.6895137445783817 -0.7158009732652265 0 0 0 0
317794165 0.0020355384008793223 -0.012976392591700667 0.6810053663009035 -0.7232520769271569 0 0 0 0
320725538 -0.0008434364056481178 -0.014212381527350092 0.6761047955125639 -0.7282359164025984 0 0 0 0
323656911 -0.003734202274567938 -0.01469554504800154 0.6714908793820584 -0.7324228089370107 0 0 0 0
326588284 -0.006867610482011869 -0.014719919033355067 0.6650337706283683 -0.7365410399276154 0 0 0 0
329519657 -0.0097718359824769 -0.014290413959515165 0.6548878275650009 -0.746674427132635 0 0 0 0
332451030 -0.012519536333541064 -0.013110823788636762 0.6541730819157315 -0.7479597187296033 0 0 0 0
335382403 -0.015050395592656057 -0.011468525030136265 0.647087993894226 -0.7522530068051907 0 0 0 0
338313776 -0.017632860011941878 -0.00948752559694725 0.6456916680823803 -0.7544404123059537 0 0 0 0
341245149 -0.01932365528945858 -0.007121735032033195 0.6314537608028871 -0.7641882566474216 0 0 0 0
344176522 -0.020619932536755762 -0.004106056915064832 0.631151863404316 -0.7641568969465672 0 0 0 0
347107895 -0.02132047692942617 -0.0011924669215621069 0.6256103059833571 -0.7703952399937168 0 0 0 0
350039268 -0.021511755228506152 0.0021593927288772216 0.6181563019364624 -0.7778086811524206 0 0 0 0
352970641 -0.020819727377128016 0.005054059181926611 0.6130737588355909 -0.7796256335704282 0 0 0 0
355902014 -0.019580854569475423 0.0081047612756347 0.6074727581077743 -0.7864328510907641 0 0 0 0
358833387 -0.017939527654263817 0.010875994297713593 0.6040311233686594 -0.788744496363332 0 0 0 0
361764760 -0.01573483944047643 0.013287181757255422 0.5960358780701015 -0.7931575341638295 0 0 0 0
364696133 -0.013437762510815129 0.015074423886871835 0.5910062440634475 -0.7974638828832137 0 0 0 0
367627506 -0.01049948540228965 0.016777614617561967 0.5841612286248895 -0.8024509850052706 0 0 0 0
370558879 -0.007341190769058949 0.01767288821491929 0.5761066993843383 -0.8093117649095761 0 0 0 0
373490252 -0.004042662975860907 0.017982149064210293 0.5691220322533603 -0.8127923990941655 0 0 0 0
376421625 -0.0007634466800099485 0.01749585136970225 0.5677932216752698 -0.8132874027141843 0 0 0 0
379352998 0.0023430863330588803 0.016475104999421376 0.5604768570382328 -0.8203791683193565 0 0 0 0
382284371 0.0054031478431057775 0.014827437862214132 0.5551947742388749 -0.8246037253222959 0 0 0 0
385215744 0.008107723683700588 0.012999549199589365 0.5524842168207625 -0.8253042913934506 0 0 0 0
388147117 0.010276614880175344 0.010246752007024733 0.5394962457421324 -0.834857244828601 0 0 0 0
391078490 0.011921631832787197 0.007323866578825677 0.5381817773099187 -0.834130640786826 0 0 0 0
394009863 0.012922948647775016 0.0042429522583517475 0.5306368021625509 -0.8405328145902548 0 0 0 0
396941236 0.013479863275743102 0.000804472064781207 0.5253294779386195 -0.8418680094513036 0 0 0 0
399872609 0.013363205944459765 -0.0024969138321865453 0.5144453586059927 -0.8484228048546293 0 0 0 0
402803982 0.012576894505841719 -0.005866210380500967 0.5121877991035301 -0.8513675107662344 0 0 0 0
405735355 0.011317862895091653 -0.008880226386569089 0.5050055561193592 -0.8555824699859944 0 0 0 0
408666728 0.009138554558432392 -0.011928854756504549 0.49717623570905517 -0.8599698342521216 0 0 0 0
411598101 0.006517566879180222 -0.014640862390462443 0.49318792235650855 -0.8617454237668315 0 0 0 0
414529474 0.0034141900433086545 -0.016633249513595873 0.4816988665079553 -0.8689844716462467 0 0 0 0
417460847 0.000453233686191452 -0.017583479943996918 0.4817507286250223 -0.8686958145028761 0 0 0 0
420392220 -0.0031126620534643436 -0.018622702732088072 0.4713298581373175 -0.8736029726942063 0 0 0 0
423323593 -0.006652806285366037 -0.018813680514393673 0.46418791325840464 -0.8775528679271297 0 0 0 0
426254966 -0.010256630682203418 -0.01838741053446804 0.4570871232409108 -0.881172448261718 0 0 0 0
429186339 -0.013630802655409802 -0.01697721901946315 0.4531169835592892 -0.8834399817846137 0 0 0 0
432117712 -0.01643417155899584 -0.015005701963172758 0.44319143984806125 -0.8880495968937964 0 0 0 0
435049085 -0.019573786257852954 -0.012771301194157486 0.4330807393035623 -0.8938272859260441 0 0 0 0
437980458 -0.02185536804710067 -0.009526180997069035 0.4340611502176802 -0.891796710845971 0 0 0 0
440911831 -0.02337200716568458 -0.006559455368048979 0.4272658183530726 -0.8965004710028676 0 0 0 0
443843204 -0.02405086521465264 -0.0025561281177791705 0.41632253049861195 -0.9009511397589358 0 0 0 0
446774577 -0.024633737741195042 0.0011824054905870077 0.4109244147411351 -0.9039146063782564 0 0 0 0
449705950 -0.02417254107500039 0.004744008830479248 0.40265824140817674 -0.9089105889327224 0 0 0 0
452637323 -0.023334648221276774 0.008442844029915034 0.39494499803481403 -0.9099489719078664 0 0 0 0
455568696 -0.021658025567797598 0.012139713398480969 0.38772906097127907 -0.9135874396483528 0 0 0 0
458500069 -0.019345057483393897 0.014569050250129943 0.3802156834725905 -0.916517594162487 0 0 0 0
461431442 -0.01645674788205662 0.01784823467113449 0.3795465263491377 -0.917630313089363 0 0 0 0
464362815 -0.013009275094408851 0.01965525268566646 0.3721438872370064 -0.921225011497664 0 0 0 0
467294188 -0.00960722515071954 0.021225036091243932 0.359820870716866 -0.9261483079706115 0 0 0 0
470225561 -0.005952182034489859 0.02175604374533658 0.35727395041731086 -0.9266538591206359 0 0 0 0
473156934 -0.0019679696104814865 0.0223272266058704 0.35082661439331175 -0.9291712866349654 0 0 0 0
476088307 0.002275565875350267 0.02137593860760162 0.3410726307546292 -0.9316484077054338 0 0 0 0
479019680 0.0058485827196528605 0.019854973278530242 0.33507289521974426 -0.9345096138890966 0 0 0 0
481951053 0.00908394248268924 0.017786989760441848 0.3261384778762548 -0.9372593705643237 0 0 0 0
484882426 0.012410761922435556 0.015253148049545409 0.3169517912609159 -0.940429561133145 0 0 0 0
487813799 0.014802646796106893 0.012411019452661027 0.3143403378250329 -0.9415693673364358 0 0 0 0
490745172 0.016770547004995515 0.009492195891107787 0.30852572907213305 -0.9434772188459746 0 0 0 0
493676545 0.017785022211529503 0.004934460310015472 0.2988562855226302 -0.9466095782185048 0 0 0 0
496607918 0.018642551237771175 0.0019373414187595253 0.29678105812850236 -0.9481434712689706 0 0 0 0
499539291 0.01862782472560576 -0.0022055319528099626 0.28715205450996484 -0.9511357579270722 0 0 0 0
502470664 0.01759376429914556 -0.006073705643737096 0.2787385756897317 -0.9538117952341916 0 0 0 0
505402037 0.016071008867741116 -0.009624531119855296 0.2709607311173724 -0.9552889592477338 0 0 0 0
508333410 0.01404994830395912 -0.012917481278384045 0.26707603934818497 -0.9575684557051094 0 0 0 0
511264783 0.011277598322123182 -0.015581555151049269 0.2563674741549986 -0.9613316949427165 0 0 0 0
514196156 0.008352904592796443 -0.017478661150552487 0.2504904827279443 -0.9604957242209462 0 0 0 0
517127529 0.005151296355333041 -0.01940318270383502 0.24112610816143829 -0.9632948543460649 0 0 0 0
520058902 0.0017868636104029798 -0.01985436480462215 0.23578009754053358 -0.9645164454959453 0 0 0 0
522990275 -0.0018050150158619902 -0.020180382405740188 0.22846037512933395 -0.9670534522928321 0 0 0 0
525921648 -0.005403786343379939 -0.019843188660639003 0.22246172332506092 -0.9689857188152147 0 0 0 0
528853021 -0.00882160391554133 -0.018519362915091857 0.21456957837842072 -0.9698024087623424 0 0 0 0
531784394 -0.011759941893401142 -0.016381011395759204 0.2043171328694214 -0.9726630192873827 0 0 0 0
534715767 -0.014292077956343196 -0.014244973619479765 0.1955783075210091 -0.9745377806783653 0 0 0 0
537647140 -0.016346939733602035 -0.011813052233227097 0.190046811912543 -0.9753678881370278 0 0 0 0
540578513 -0.017442103217158302 -0.007671533010083275 0.1924475046991061 -0.9747843737847892 0 0 0 0
543509886 -0.0182662886389498 -0.005104076440178148 0.1798224870246728 -0.9768955690645844 0 0 0 0
546441259 -0.018805354854399253 -0.00150367626293481 0.17890137494175684 -0.9781585172810265 0 0 0 0
549372632 -0.017933665209835085 0.0023617806652589555 0.1614779326128745 -0.9799643083091457 0 0 0 0
552304005 -0.016574767097425273 0.005326165331782681 0.16207576515615732 -0.9819524873863407 0 0 0 0
555235378 -0.014911632987028238 0.007715799805351606 0.15167453030960018 -0.9829202670455127 0 0 0 0
558166751 -0.012600978891612373 0.010767197706491727 0.13444055783030495 -0.9834559247607352 0 0 0 0
561098124 -0.009272374079192755 0.012243867721321893 0.13781206563177184 -0.9847111467613442 0 0 0 0
564029497 -0.0060469813865928835 0.01352439235668097 0.1329965297682645 -0.9830980892781088 0 0 0 0
566960870 -0.0025524906029422536 0.01462078417509405 0.11647506141510854 -0.9869687031300829 0 0 0 0
569892243 0.0012111894019618064 0.015446842551485677 0.11932736049460521 -0.9885867979428347 0 0 0 0
572823616 0.004678640610577624 0.014154780696145043 0.11195977815655761 -0.9879535941680174 0 0 0 0
575754989 0.008295584142279133 0.012589524381233752 0.09260850834349808 -0.9855078922794202 0 0 0 0
578686362 0.011796508313997285 0.00967702332271122 0.09120951658752299 -0.9899546657686972 0 0 0 0
581617735 0.014337706515335204 0.0077872284699053015 0.09779112229417355 -0.9896474828380766 0 0 0 0
584549108 0.016511500568999072 0.0049764910731218606 0.07831485087900268 -0.9903012837523059 0 0 0 0
